T892C 000:009.666   SEGGER J-Link V7.64 Log File
T892C 000:009.794   DLL Compiled: Apr  1 2022 16:04:43
T892C 000:009.798   Logging started @ 2024-05-07 13:44
T892C 000:009.802 - 9.803ms
T892C 000:009.809 JLINK_SetWarnOutHandler(...)
T892C 000:009.813 - 0.006ms
T892C 000:009.818 JLINK_OpenEx(...)
T892C 000:011.498   Firmware: J-Link V9 compiled May  7 2021 16:26:12
T892C 000:012.072   Firmware: J-Link V9 compiled May  7 2021 16:26:12
T892C 000:012.201   Decompressing FW timestamp took 103 us
T892C 000:018.734   Hardware: V9.50
T892C 000:018.754   S/N: 69531172
T892C 000:018.759   OEM: SEGGER
T892C 000:018.764   Feature(s): JFlash, GDB, RDI, FlashBP, FlashDL
T892C 000:019.695   TELNET listener socket opened on port 19021
T892C 000:019.811   WEBSRV WEBSRV_Init(): Starting webserver thread(s)
T892C 000:019.986   WEBSRV Webserver running on local port 19080
T892C 000:032.502 - 22.702ms returns "O.K."
T892C 000:032.538 JLINK_GetEmuCaps()
T892C 000:032.544 - 0.006ms returns 0xB9FF7BBF
T892C 000:032.555 JLINK_TIF_GetAvailable(...)
T892C 000:032.751 - 0.206ms
T892C 000:032.766 JLINK_SetErrorOutHandler(...)
T892C 000:032.770 - 0.005ms
T892C 000:032.786 JLINK_ExecCommand("ProjectFile = "D:\Engineer-master\robotarm-new\MDK-ARM\JLinkSettings.ini"", ...). 
T892C 000:040.738   Ref file found at: C:\Keil_v5\ARM\Segger\JLinkDevices.ref
T892C 000:040.820   REF file references invalid XML file: C:\Program Files\SEGGER\JLink\JLinkDevices.xml
T892C 000:040.899 - 8.115ms returns 0x00
T892C 000:040.932 JLINK_ExecCommand("Device = STM32F407IGHx", ...). 
T892C 000:041.365   Device "STM32F407IG" selected.
T892C 000:041.990 - 1.059ms returns 0x00
T892C 000:042.001 JLINK_ExecCommand("DisableConnectionTimeout", ...). 
T892C 000:042.007 - 0.002ms returns 0x01
T892C 000:042.011 JLINK_GetHardwareVersion()
T892C 000:042.015 - 0.005ms returns 95000
T892C 000:042.021 JLINK_GetDLLVersion()
T892C 000:042.024 - 0.004ms returns 76400
T892C 000:042.029 JLINK_GetOEMString(...)
T892C 000:042.033 JLINK_GetFirmwareString(...)
T892C 000:042.036 - 0.004ms
T892C 000:042.063 JLINK_GetDLLVersion()
T892C 000:042.067 - 0.004ms returns 76400
T892C 000:042.071 JLINK_GetCompileDateTime()
T892C 000:042.074 - 0.004ms
T892C 000:042.081 JLINK_GetFirmwareString(...)
T892C 000:042.084 - 0.004ms
T892C 000:042.090 JLINK_GetHardwareVersion()
T892C 000:042.093 - 0.004ms returns 95000
T892C 000:042.100 JLINK_GetSN()
T892C 000:042.103 - 0.005ms returns 69531172
T892C 000:042.109 JLINK_GetOEMString(...)
T892C 000:042.117 JLINK_TIF_Select(JLINKARM_TIF_SWD)
T892C 000:042.901 - 0.794ms returns 0x00
T892C 000:042.917 JLINK_HasError()
T892C 000:042.928 JLINK_SetSpeed(3000)
T892C 000:043.086 - 0.166ms
T892C 000:043.100 JLINK_GetId()
T892C 000:043.392   InitTarget() start
T892C 000:043.406    J-Link Script File: Executing InitTarget()
T892C 000:050.361   InitTarget() end
T892C 000:050.854   Found SW-DP with ID 0x2BA01477
T892C 000:052.529   DPIDR: 0x2BA01477
T892C 000:052.539   CoreSight SoC-400 or earlier
T892C 000:052.547   Scanning AP map to find all available APs
T892C 000:053.041   AP[1]: Stopped AP scan as end of AP map has been reached
T892C 000:053.050   AP[0]: AHB-AP (IDR: 0x24770011)
T892C 000:053.058   Iterating through AP map to find AHB-AP to use
T892C 000:053.867   AP[0]: Core found
T892C 000:053.883   AP[0]: AHB-AP ROM base: 0xE00FF000
T892C 000:054.298   CPUID register: 0x410FC241. Implementer code: 0x41 (ARM)
T892C 000:054.310   Found Cortex-M4 r0p1, Little endian.
T892C 000:155.811   -- Max. mem block: 0x00010C40
T892C 000:156.034   CPU_ReadMem(4 bytes @ 0xE000EDF0)
T892C 000:156.502   CPU_ReadMem(4 bytes @ 0xE0002000)
T892C 000:157.285   FPUnit: 6 code (BP) slots and 2 literal slots
T892C 000:157.321   CPU_ReadMem(4 bytes @ 0xE000EDFC)
T892C 000:157.806   CPU_WriteMem(4 bytes @ 0xE000EDFC)
T892C 000:158.433   CPU_ReadMem(4 bytes @ 0xE0001000)
T892C 000:159.110   CPU_WriteMem(4 bytes @ 0xE0001000)
T892C 000:159.613   CPU_ReadMem(4 bytes @ 0xE000ED88)
T892C 000:160.162   CPU_WriteMem(4 bytes @ 0xE000ED88)
T892C 000:160.926   CPU_ReadMem(4 bytes @ 0xE000ED88)
T892C 000:161.492   CPU_WriteMem(4 bytes @ 0xE000ED88)
T892C 000:162.036   CoreSight components:
T892C 000:162.050   ROMTbl[0] @ E00FF000
T892C 000:162.057   CPU_ReadMem(64 bytes @ 0xE00FF000)
T892C 000:163.088   CPU_ReadMem(32 bytes @ 0xE000EFE0)
T892C 000:163.967   [0][0]: E000E000 CID B105E00D PID 000BB00C SCS-M7
T892C 000:163.978   CPU_ReadMem(32 bytes @ 0xE0001FE0)
T892C 000:164.536   [0][1]: E0001000 CID B105E00D PID 003BB002 DWT
T892C 000:164.548   CPU_ReadMem(32 bytes @ 0xE0002FE0)
T892C 000:165.122   [0][2]: E0002000 CID B105E00D PID 002BB003 FPB
T892C 000:165.134   CPU_ReadMem(32 bytes @ 0xE0000FE0)
T892C 000:165.686   [0][3]: E0000000 CID B105E00D PID 003BB001 ITM
T892C 000:165.698   CPU_ReadMem(32 bytes @ 0xE0040FE0)
T892C 000:166.315   [0][4]: E0040000 CID B105900D PID 000BB9A1 TPIU
T892C 000:166.327   CPU_ReadMem(32 bytes @ 0xE0041FE0)
T892C 000:167.166   [0][5]: E0041000 CID B105900D PID 000BB925 ETM
T892C 000:167.603 - 124.511ms returns 0x2BA01477
T892C 000:167.624 JLINK_GetDLLVersion()
T892C 000:167.628 - 0.005ms returns 76400
T892C 000:167.632 JLINK_CORE_GetFound()
T892C 000:167.635 - 0.004ms returns 0xE0000FF
T892C 000:167.640 JLINK_GetDebugInfo(0x100 = JLINKARM_ROM_TABLE_ADDR_INDEX)
T892C 000:167.645   Value=0xE00FF000
T892C 000:167.649 - 0.011ms returns 0
T892C 000:167.663 JLINK_GetDebugInfo(0x100 = JLINKARM_ROM_TABLE_ADDR_INDEX)
T892C 000:167.666   Value=0xE00FF000
T892C 000:167.671 - 0.009ms returns 0
T892C 000:167.776 JLINK_GetDebugInfo(0x101 = JLINKARM_DEBUG_INFO_ETM_ADDR_INDEX)
T892C 000:167.787   Value=0xE0041000
T892C 000:167.792 - 0.017ms returns 0
T892C 000:167.799 JLINK_ReadMemEx(0xE0041FD0, 0x20 Bytes, Flags = 0x02000004)
T892C 000:167.814   CPU_ReadMem(32 bytes @ 0xE0041FD0)
T892C 000:168.671   Data:  04 00 00 00 00 00 00 00 00 00 00 00 00 00 00 00 ...
T892C 000:168.686 - 0.888ms returns 32 (0x20)
T892C 000:168.693 JLINK_GetDebugInfo(0x102 = JLINKARM_DEBUG_INFO_MTB_ADDR_INDEX)
T892C 000:168.696   Value=0x00000000
T892C 000:168.701 - 0.010ms returns 0
T892C 000:168.705 JLINK_GetDebugInfo(0x103 = JLINKARM_DEBUG_INFO_TPIU_ADDR_INDEX)
T892C 000:168.708   Value=0xE0040000
T892C 000:168.713 - 0.009ms returns 0
T892C 000:168.717 JLINK_GetDebugInfo(0x104 = JLINKARM_DEBUG_INFO_ITM_ADDR_INDEX)
T892C 000:168.720   Value=0xE0000000
T892C 000:168.724 - 0.009ms returns 0
T892C 000:168.728 JLINK_GetDebugInfo(0x105 = JLINKARM_DEBUG_INFO_DWT_ADDR_INDEX)
T892C 000:168.731   Value=0xE0001000
T892C 000:168.736 - 0.009ms returns 0
T892C 000:168.740 JLINK_GetDebugInfo(0x106 = JLINKARM_DEBUG_INFO_FPB_ADDR_INDEX)
T892C 000:168.743   Value=0xE0002000
T892C 000:168.747 - 0.009ms returns 0
T892C 000:168.751 JLINK_GetDebugInfo(0x107 = JLINKARM_DEBUG_INFO_NVIC_ADDR_INDEX)
T892C 000:168.754   Value=0xE000E000
T892C 000:168.759 - 0.009ms returns 0
T892C 000:168.762 JLINK_GetDebugInfo(0x10C = JLINKARM_DEBUG_INFO_DBG_ADDR_INDEX)
T892C 000:168.766   Value=0xE000EDF0
T892C 000:168.770 - 0.009ms returns 0
T892C 000:168.774 JLINK_GetDebugInfo(0x01 = Unknown)
T892C 000:168.777   Value=0x00000001
T892C 000:168.782 - 0.009ms returns 0
T892C 000:168.786 JLINK_ReadMemU32(0xE000ED00, 0x1 Items)
T892C 000:168.794   CPU_ReadMem(4 bytes @ 0xE000ED00)
T892C 000:169.430   Data:  41 C2 0F 41
T892C 000:169.441   Debug reg: CPUID
T892C 000:169.446 - 0.661ms returns 1 (0x1)
T892C 000:169.452 JLINK_GetDebugInfo(0x10F = JLINKARM_DEBUG_INFO_HAS_CORTEX_M_SECURITY_EXT_INDEX)
T892C 000:169.456   Value=0x00000000
T892C 000:169.460 - 0.010ms returns 0
T892C 000:169.465 JLINK_HasError()
T892C 000:169.469 JLINK_SetResetType(JLINKARM_CM3_RESET_TYPE_NORMAL)
T892C 000:169.473 - 0.005ms returns JLINKARM_CM3_RESET_TYPE_NORMAL
T892C 000:169.477 JLINK_Reset()
T892C 000:169.490   CPU is running
T892C 000:169.496   CPU_WriteMem(4 bytes @ 0xE000EDF0)
T892C 000:169.998   CPU is running
T892C 000:170.013   CPU_WriteMem(4 bytes @ 0xE000EDFC)
T892C 000:170.475   Reset: Halt core after reset via DEMCR.VC_CORERESET.
T892C 000:171.467   Reset: Reset device via AIRCR.SYSRESETREQ.
T892C 000:171.488   CPU is running
T892C 000:171.495   CPU_WriteMem(4 bytes @ 0xE000ED0C)
T892C 000:225.686   CPU_ReadMem(4 bytes @ 0xE000EDF0)
T892C 000:226.299   CPU_ReadMem(4 bytes @ 0xE000EDF0)
T892C 000:226.778   CPU is running
T892C 000:226.792   CPU_WriteMem(4 bytes @ 0xE000EDF0)
T892C 000:227.319   CPU is running
T892C 000:227.333   CPU_WriteMem(4 bytes @ 0xE000EDFC)
T892C 000:233.756   CPU_ReadMem(4 bytes @ 0xE000EDF0)
T892C 000:237.533   CPU_WriteMem(4 bytes @ 0xE0002000)
T892C 000:238.268   CPU_ReadMem(4 bytes @ 0xE000EDFC)
T892C 000:238.863   CPU_ReadMem(4 bytes @ 0xE0001000)
T892C 000:239.417 - 69.952ms
T892C 000:239.447 JLINK_HasError()
T892C 000:239.455 JLINK_ReadReg(R15 (PC))
T892C 000:239.471 - 0.018ms returns 0x0800022C
T892C 000:239.477 JLINK_ReadReg(XPSR)
T892C 000:239.483 - 0.008ms returns 0x01000000
T892C 000:239.490 JLINK_Halt()
T892C 000:239.494 - 0.007ms returns 0x00
T892C 000:239.604 JLINK_ReadMemU32(0xE000EDF0, 0x1 Items)
T892C 000:239.629   CPU_ReadMem(4 bytes @ 0xE000EDF0)
T892C 000:240.215   Data:  03 00 03 00
T892C 000:240.234   Debug reg: DHCSR
T892C 000:240.241 - 0.639ms returns 1 (0x1)
T892C 000:240.253 JLINK_WriteU32_64(0xE000EDF0, 0xA05F0003)
T892C 000:240.258   Debug reg: DHCSR
T892C 000:240.539   CPU_WriteMem(4 bytes @ 0xE000EDF0)
T892C 000:241.122 - 0.880ms returns 0 (0x00000000)
T892C 000:241.140 JLINK_WriteU32_64(0xE000EDFC, 0x01000000)
T892C 000:241.145   Debug reg: DEMCR
T892C 000:241.160   CPU_WriteMem(4 bytes @ 0xE000EDFC)
T892C 000:241.641 - 0.511ms returns 0 (0x00000000)
T892C 000:241.697 JLINK_GetHWStatus(...)
T892C 000:241.961 - 0.276ms returns 0
T892C 000:242.001 JLINK_GetNumBPUnits(Type = 0xFFFFFF00)
T892C 000:242.007 - 0.008ms returns 0x06
T892C 000:242.012 JLINK_GetNumBPUnits(Type = 0xF0)
T892C 000:242.016 - 0.006ms returns 0x2000
T892C 000:242.021 JLINK_GetNumWPUnits()
T892C 000:242.025 - 0.005ms returns 4
T892C 000:242.037 JLINK_GetSpeed()
T892C 000:242.042 - 0.006ms returns 3000
T892C 000:242.051 JLINK_ReadMemU32(0xE000E004, 0x1 Items)
T892C 000:242.061   CPU_ReadMem(4 bytes @ 0xE000E004)
T892C 000:242.674   Data:  02 00 00 00
T892C 000:242.703 - 0.656ms returns 1 (0x1)
T892C 000:242.713 JLINK_ReadMemU32(0xE000E004, 0x1 Items)
T892C 000:242.735   CPU_ReadMem(4 bytes @ 0xE000E004)
T892C 000:243.115   Data:  02 00 00 00
T892C 000:243.126 - 0.414ms returns 1 (0x1)
T892C 000:243.132 JLINK_WriteMemEx(0xE0001000, 0x0000001C Bytes, Flags = 0x02000004)
T892C 000:243.136   Data:  01 00 00 00 00 00 00 00 00 00 00 00 00 00 00 00 ...
T892C 000:243.149   CPU_WriteMem(28 bytes @ 0xE0001000)
T892C 000:243.765 - 0.641ms returns 0x1C
T892C 000:243.782 JLINK_HasError()
T892C 000:243.789 JLINK_ReadReg(R15 (PC))
T892C 000:243.795 - 0.008ms returns 0x0800022C
T892C 000:243.800 JLINK_ReadReg(XPSR)
T892C 000:243.804 - 0.005ms returns 0x01000000
T892C 000:248.869 JLINK_ReadMemEx(0xE0001004, 0x4 Bytes, Flags = 0x02000000)
T892C 000:248.890   Data:  00 00 00 00
T892C 000:248.896   Debug reg: DWT_CYCCNT
T892C 000:248.900 - 0.032ms returns 4 (0x4)
T892C 000:347.383 JLINK_HasError()
T892C 000:347.418 JLINK_SetResetType(JLINKARM_CM3_RESET_TYPE_NORMAL)
T892C 000:347.423 - 0.007ms returns JLINKARM_CM3_RESET_TYPE_NORMAL
T892C 000:347.429 JLINK_Reset()
T892C 000:347.448   CPU_WriteMem(4 bytes @ 0xE000EDF0)
T892C 000:347.831   CPU_WriteMem(4 bytes @ 0xE000EDFC)
T892C 000:348.130   Reset: Halt core after reset via DEMCR.VC_CORERESET.
T892C 000:348.435   Reset: Reset device via AIRCR.SYSRESETREQ.
T892C 000:348.441   CPU_WriteMem(4 bytes @ 0xE000ED0C)
T892C 000:401.990   CPU_ReadMem(4 bytes @ 0xE000EDF0)
T892C 000:402.553   CPU_ReadMem(4 bytes @ 0xE000EDF0)
T892C 000:403.050   CPU_WriteMem(4 bytes @ 0xE000EDF0)
T892C 000:403.542   CPU_WriteMem(4 bytes @ 0xE000EDFC)
T892C 000:409.836   CPU_ReadMem(4 bytes @ 0xE000EDF0)
T892C 000:413.501   CPU_WriteMem(4 bytes @ 0xE0002000)
T892C 000:414.148   CPU_ReadMem(4 bytes @ 0xE000EDFC)
T892C 000:414.809   CPU_ReadMem(4 bytes @ 0xE0001000)
T892C 000:415.576 - 68.157ms
T892C 000:415.681 JLINK_HasError()
T892C 000:415.688 JLINK_ReadReg(R15 (PC))
T892C 000:415.695 - 0.008ms returns 0x0800022C
T892C 000:415.700 JLINK_ReadReg(XPSR)
T892C 000:415.703 - 0.005ms returns 0x01000000
T892C 000:416.025 JLINK_ReadMemEx(0x0800022C, 0x3C Bytes, Flags = 0x02000000)
T892C 000:416.037   CPU_ReadMem(128 bytes @ 0x08000200)
T892C 000:417.454    -- Updating C cache (128 bytes @ 0x08000200)
T892C 000:417.465    -- Read from C cache (60 bytes @ 0x0800022C)
T892C 000:417.471   Data:  09 48 80 47 09 48 00 47 FE E7 FE E7 FE E7 FE E7 ...
T892C 000:417.476 - 1.452ms returns 60 (0x3C)
T892C 000:417.482 JLINK_ReadMemEx(0x0800022C, 0x2 Bytes, Flags = 0x02000000)
T892C 000:417.487    -- Read from C cache (2 bytes @ 0x0800022C)
T892C 000:417.491   Data:  09 48
T892C 000:417.496 - 0.015ms returns 2 (0x2)
T892C 000:417.561 JLINK_ReadMemEx(0x0800022E, 0x2 Bytes, Flags = 0x02000000)
T892C 000:417.566    -- Read from C cache (2 bytes @ 0x0800022E)
T892C 000:417.570   Data:  80 47
T892C 000:417.575 - 0.014ms returns 2 (0x2)
T892C 000:417.586 JLINK_ReadMemEx(0x0800022E, 0x2 Bytes, Flags = 0x02000000)
T892C 000:417.590    -- Read from C cache (2 bytes @ 0x0800022E)
T892C 000:417.595   Data:  80 47
T892C 000:417.599 - 0.014ms returns 2 (0x2)
T892C 000:417.603 JLINK_ReadMemEx(0x08000230, 0x3C Bytes, Flags = 0x02000000)
T892C 000:417.607    -- Read from C cache (60 bytes @ 0x08000230)
T892C 000:417.612   Data:  09 48 00 47 FE E7 FE E7 FE E7 FE E7 FE E7 FE E7 ...
T892C 000:417.616 - 0.014ms returns 60 (0x3C)
T892C 000:417.620 JLINK_ReadMemEx(0x08000230, 0x2 Bytes, Flags = 0x02000000)
T892C 000:417.624    -- Read from C cache (2 bytes @ 0x08000230)
T892C 000:417.628   Data:  09 48
T892C 000:417.633 - 0.014ms returns 2 (0x2)
T892C 002:588.295 JLINK_ReadMemEx(0x08000230, 0x3C Bytes, Flags = 0x02000000)
T892C 002:588.325    -- Read from C cache (60 bytes @ 0x08000230)
T892C 002:588.331   Data:  09 48 00 47 FE E7 FE E7 FE E7 FE E7 FE E7 FE E7 ...
T892C 002:588.336 - 0.042ms returns 60 (0x3C)
T892C 002:588.341 JLINK_ReadMemEx(0x08000230, 0x2 Bytes, Flags = 0x02000000)
T892C 002:588.345    -- Read from C cache (2 bytes @ 0x08000230)
T892C 002:588.350   Data:  09 48
T892C 002:588.356 - 0.016ms returns 2 (0x2)
T892C 002:588.360 JLINK_ReadMemEx(0x08000232, 0x2 Bytes, Flags = 0x02000000)
T892C 002:588.364    -- Read from C cache (2 bytes @ 0x08000232)
T892C 002:588.369   Data:  00 47
T892C 002:588.374 - 0.015ms returns 2 (0x2)
T892C 003:170.350 JLINK_HasError()
T892C 003:170.373 JLINK_ReadReg(R0)
T892C 003:170.758 - 0.392ms returns 0x00000000
T892C 003:170.770 JLINK_ReadReg(R1)
T892C 003:170.774 - 0.006ms returns 0x00000000
T892C 003:170.779 JLINK_ReadReg(R2)
T892C 003:170.782 - 0.005ms returns 0x00000000
T892C 003:170.787 JLINK_ReadReg(R3)
T892C 003:170.790 - 0.005ms returns 0x00000000
T892C 003:170.794 JLINK_ReadReg(R4)
T892C 003:170.798 - 0.005ms returns 0x00000000
T892C 003:170.802 JLINK_ReadReg(R5)
T892C 003:170.806 - 0.005ms returns 0x00000000
T892C 003:170.810 JLINK_ReadReg(R6)
T892C 003:170.813 - 0.005ms returns 0x00000000
T892C 003:170.817 JLINK_ReadReg(R7)
T892C 003:170.821 - 0.005ms returns 0x00000000
T892C 003:170.825 JLINK_ReadReg(R8)
T892C 003:170.835 - 0.011ms returns 0x00000000
T892C 003:170.839 JLINK_ReadReg(R9)
T892C 003:170.843 - 0.005ms returns 0x00000000
T892C 003:170.847 JLINK_ReadReg(R10)
T892C 003:170.850 - 0.005ms returns 0x00000000
T892C 003:170.854 JLINK_ReadReg(R11)
T892C 003:170.858 - 0.005ms returns 0x00000000
T892C 003:170.862 JLINK_ReadReg(R12)
T892C 003:170.865 - 0.005ms returns 0x00000000
T892C 003:170.869 JLINK_ReadReg(R13 (SP))
T892C 003:170.874 - 0.006ms returns 0x20010FD8
T892C 003:170.878 JLINK_ReadReg(R14)
T892C 003:170.881 - 0.005ms returns 0xFFFFFFFF
T892C 003:170.885 JLINK_ReadReg(R15 (PC))
T892C 003:170.889 - 0.005ms returns 0x0800022C
T892C 003:170.893 JLINK_ReadReg(XPSR)
T892C 003:170.897 - 0.005ms returns 0x01000000
T892C 003:170.901 JLINK_ReadReg(MSP)
T892C 003:170.904 - 0.005ms returns 0x20010FD8
T892C 003:170.952 JLINK_ReadReg(PSP)
T892C 003:170.957 - 0.006ms returns 0x00000000
T892C 003:170.961 JLINK_ReadReg(CFBP)
T892C 003:170.964 - 0.005ms returns 0x00000000
T892C 003:170.969 JLINK_ReadReg(FPSCR)
T892C 003:175.065 - 4.109ms returns 0x00000000
T892C 003:175.084 JLINK_ReadReg(FPS0)
T892C 003:175.090 - 0.008ms returns 0x00000000
T892C 003:175.094 JLINK_ReadReg(FPS1)
T892C 003:175.098 - 0.005ms returns 0x00000000
T892C 003:175.102 JLINK_ReadReg(FPS2)
T892C 003:175.106 - 0.005ms returns 0x00000000
T892C 003:175.110 JLINK_ReadReg(FPS3)
T892C 003:175.114 - 0.012ms returns 0x00000000
T892C 003:175.125 JLINK_ReadReg(FPS4)
T892C 003:175.129 - 0.005ms returns 0x00000000
T892C 003:175.133 JLINK_ReadReg(FPS5)
T892C 003:175.137 - 0.005ms returns 0x00000000
T892C 003:175.141 JLINK_ReadReg(FPS6)
T892C 003:175.144 - 0.005ms returns 0x00000000
T892C 003:175.149 JLINK_ReadReg(FPS7)
T892C 003:175.152 - 0.005ms returns 0x00000000
T892C 003:175.156 JLINK_ReadReg(FPS8)
T892C 003:175.160 - 0.005ms returns 0x00000000
T892C 003:175.164 JLINK_ReadReg(FPS9)
T892C 003:175.168 - 0.005ms returns 0x00000000
T892C 003:175.172 JLINK_ReadReg(FPS10)
T892C 003:175.175 - 0.005ms returns 0x00000000
T892C 003:175.180 JLINK_ReadReg(FPS11)
T892C 003:175.183 - 0.005ms returns 0x00000000
T892C 003:175.187 JLINK_ReadReg(FPS12)
T892C 003:175.191 - 0.005ms returns 0x00000000
T892C 003:175.195 JLINK_ReadReg(FPS13)
T892C 003:175.198 - 0.005ms returns 0x00000000
T892C 003:175.202 JLINK_ReadReg(FPS14)
T892C 003:175.206 - 0.005ms returns 0x00000000
T892C 003:175.210 JLINK_ReadReg(FPS15)
T892C 003:175.214 - 0.005ms returns 0x00000000
T892C 003:175.218 JLINK_ReadReg(FPS16)
T892C 003:175.221 - 0.005ms returns 0x00000000
T892C 003:175.225 JLINK_ReadReg(FPS17)
T892C 003:175.229 - 0.005ms returns 0x00000000
T892C 003:175.233 JLINK_ReadReg(FPS18)
T892C 003:175.236 - 0.005ms returns 0x00000000
T892C 003:175.241 JLINK_ReadReg(FPS19)
T892C 003:175.244 - 0.005ms returns 0x00000000
T892C 003:175.248 JLINK_ReadReg(FPS20)
T892C 003:175.252 - 0.005ms returns 0x00000000
T892C 003:175.256 JLINK_ReadReg(FPS21)
T892C 003:175.259 - 0.005ms returns 0x00000000
T892C 003:175.264 JLINK_ReadReg(FPS22)
T892C 003:175.267 - 0.005ms returns 0x00000000
T892C 003:175.297 JLINK_ReadReg(FPS23)
T892C 003:175.308 - 0.013ms returns 0x00000000
T892C 003:175.314 JLINK_ReadReg(FPS24)
T892C 003:175.319 - 0.007ms returns 0x00000000
T892C 003:175.325 JLINK_ReadReg(FPS25)
T892C 003:175.329 - 0.006ms returns 0x00000000
T892C 003:175.335 JLINK_ReadReg(FPS26)
T892C 003:175.340 - 0.007ms returns 0x00000000
T892C 003:175.345 JLINK_ReadReg(FPS27)
T892C 003:175.349 - 0.006ms returns 0x00000000
T892C 003:175.354 JLINK_ReadReg(FPS28)
T892C 003:175.359 - 0.007ms returns 0x00000000
T892C 003:175.364 JLINK_ReadReg(FPS29)
T892C 003:175.368 - 0.006ms returns 0x00000000
T892C 003:175.373 JLINK_ReadReg(FPS30)
T892C 003:175.378 - 0.007ms returns 0x00000000
T892C 003:175.384 JLINK_ReadReg(FPS31)
T892C 003:175.388 - 0.006ms returns 0x00000000
T5508 003:342.033 JLINK_ReadMemEx(0x0800022C, 0x2 Bytes, Flags = 0x02000000)
T5508 003:342.062    -- Read from C cache (2 bytes @ 0x0800022C)
T5508 003:342.068   Data:  09 48
T5508 003:342.074 - 0.042ms returns 2 (0x2)
T5508 003:342.079 JLINK_HasError()
T5508 003:342.086 JLINK_SetBPEx(Addr = 0x0800C424, Type = 0xFFFFFFF2)
T5508 003:342.153 - 0.075ms returns 0x00000001
T5508 003:342.170 JLINK_HasError()
T5508 003:342.177 JLINK_SetBPEx(Addr = 0x08006FEC, Type = 0xFFFFFFF2)
T5508 003:342.183 - 0.008ms returns 0x00000002
T5508 003:342.189 JLINK_HasError()
T5508 003:342.194 JLINK_HasError()
T5508 003:342.200 JLINK_Go()
T5508 003:342.221   CPU_WriteMem(4 bytes @ 0xE0002000)
T5508 003:342.599   CPU_WriteMem(4 bytes @ 0xE0002000)
T5508 003:342.943   CPU_ReadMem(4 bytes @ 0xE0001000)
T5508 003:343.256   CPU_WriteMem(4 bytes @ 0xE0002008)
T5508 003:343.268   CPU_WriteMem(4 bytes @ 0xE000200C)
T5508 003:343.275   CPU_WriteMem(4 bytes @ 0xE0002010)
T5508 003:343.282   CPU_WriteMem(4 bytes @ 0xE0002014)
T5508 003:343.294   CPU_WriteMem(4 bytes @ 0xE0002018)
T5508 003:343.301   CPU_WriteMem(4 bytes @ 0xE000201C)
T5508 003:344.784   CPU_WriteMem(4 bytes @ 0xE0001004)
T5508 003:345.600 - 3.406ms
T5508 003:445.740 JLINK_HasError()
T5508 003:445.762 JLINK_IsHalted()
T5508 003:448.771 - 3.020ms returns TRUE
T5508 003:448.788 JLINK_HasError()
T5508 003:448.794 JLINK_Halt()
T5508 003:448.798 - 0.005ms returns 0x00
T5508 003:448.803 JLINK_IsHalted()
T5508 003:448.807 - 0.005ms returns TRUE
T5508 003:448.811 JLINK_IsHalted()
T5508 003:448.815 - 0.005ms returns TRUE
T5508 003:448.819 JLINK_IsHalted()
T5508 003:448.823 - 0.005ms returns TRUE
T5508 003:448.828 JLINK_HasError()
T5508 003:448.833 JLINK_ReadReg(R15 (PC))
T5508 003:448.840 - 0.008ms returns 0x0800C424
T5508 003:448.844 JLINK_ReadReg(XPSR)
T5508 003:448.848 - 0.005ms returns 0x61000000
T5508 003:448.857 JLINK_HasError()
T5508 003:448.861 JLINK_ClrBPEx(BPHandle = 0x00000001)
T5508 003:448.866 - 0.006ms returns 0x00
T5508 003:448.871 JLINK_HasError()
T5508 003:448.875 JLINK_ClrBPEx(BPHandle = 0x00000002)
T5508 003:448.879 - 0.005ms returns 0x00
T5508 003:448.883 JLINK_HasError()
T5508 003:448.888 JLINK_HasError()
T5508 003:448.892 JLINK_ReadMemU32(0xE000ED30, 0x1 Items)
T5508 003:448.902   CPU_ReadMem(4 bytes @ 0xE000ED30)
T5508 003:449.360   Data:  02 00 00 00
T5508 003:449.377 - 0.487ms returns 1 (0x1)
T5508 003:449.384 JLINK_ReadMemU32(0xE0001028, 0x1 Items)
T5508 003:449.394   CPU_ReadMem(4 bytes @ 0xE0001028)
T5508 003:449.798   Data:  00 00 00 00
T5508 003:449.816   Debug reg: DWT_FUNC[0]
T5508 003:449.821 - 0.438ms returns 1 (0x1)
T5508 003:449.828 JLINK_ReadMemU32(0xE0001038, 0x1 Items)
T5508 003:449.838   CPU_ReadMem(4 bytes @ 0xE0001038)
T5508 003:450.403   Data:  00 02 00 00
T5508 003:450.416   Debug reg: DWT_FUNC[1]
T5508 003:450.421 - 0.595ms returns 1 (0x1)
T5508 003:450.428 JLINK_ReadMemU32(0xE0001048, 0x1 Items)
T5508 003:450.438   CPU_ReadMem(4 bytes @ 0xE0001048)
T5508 003:450.933   Data:  00 00 00 00
T5508 003:450.946   Debug reg: DWT_FUNC[2]
T5508 003:450.952 - 0.525ms returns 1 (0x1)
T5508 003:450.959 JLINK_ReadMemU32(0xE0001058, 0x1 Items)
T5508 003:450.968   CPU_ReadMem(4 bytes @ 0xE0001058)
T5508 003:451.476   Data:  00 00 00 00
T5508 003:451.489   Debug reg: DWT_FUNC[3]
T5508 003:451.495 - 0.537ms returns 1 (0x1)
T5508 003:451.568 JLINK_HasError()
T5508 003:451.574 JLINK_ReadReg(R0)
T5508 003:451.581 - 0.008ms returns 0x20007FD8
T5508 003:451.585 JLINK_ReadReg(R1)
T5508 003:451.590 - 0.006ms returns 0x2000CFD8
T5508 003:451.594 JLINK_ReadReg(R2)
T5508 003:451.598 - 0.005ms returns 0x2000CFD8
T5508 003:451.602 JLINK_ReadReg(R3)
T5508 003:451.606 - 0.005ms returns 0x2000CFD8
T5508 003:451.611 JLINK_ReadReg(R4)
T5508 003:451.615 - 0.006ms returns 0x00000000
T5508 003:451.619 JLINK_ReadReg(R5)
T5508 003:451.623 - 0.005ms returns 0x20000028
T5508 003:451.628 JLINK_ReadReg(R6)
T5508 003:451.632 - 0.005ms returns 0x00000000
T5508 003:451.636 JLINK_ReadReg(R7)
T5508 003:451.640 - 0.005ms returns 0x00000000
T5508 003:451.645 JLINK_ReadReg(R8)
T5508 003:451.649 - 0.005ms returns 0x00000000
T5508 003:451.653 JLINK_ReadReg(R9)
T5508 003:451.657 - 0.005ms returns 0x00000000
T5508 003:451.661 JLINK_ReadReg(R10)
T5508 003:451.665 - 0.005ms returns 0x080106F0
T5508 003:451.670 JLINK_ReadReg(R11)
T5508 003:451.674 - 0.005ms returns 0x00000000
T5508 003:451.678 JLINK_ReadReg(R12)
T5508 003:451.682 - 0.005ms returns 0x20000068
T5508 003:451.687 JLINK_ReadReg(R13 (SP))
T5508 003:451.691 - 0.006ms returns 0x20010FD8
T5508 003:451.695 JLINK_ReadReg(R14)
T5508 003:451.699 - 0.006ms returns 0x0800021B
T5508 003:451.704 JLINK_ReadReg(R15 (PC))
T5508 003:451.708 - 0.005ms returns 0x0800C424
T5508 003:451.712 JLINK_ReadReg(XPSR)
T5508 003:451.716 - 0.005ms returns 0x61000000
T5508 003:451.721 JLINK_ReadReg(MSP)
T5508 003:451.725 - 0.005ms returns 0x20010FD8
T5508 003:451.729 JLINK_ReadReg(PSP)
T5508 003:451.733 - 0.006ms returns 0x00000000
T5508 003:451.738 JLINK_ReadReg(CFBP)
T5508 003:451.744 - 0.009ms returns 0x04000000
T5508 003:451.750 JLINK_ReadReg(FPSCR)
T5508 003:456.323 - 4.584ms returns 0x03000000
T5508 003:456.340 JLINK_ReadReg(FPS0)
T5508 003:456.347 - 0.008ms returns 0x00000000
T5508 003:456.352 JLINK_ReadReg(FPS1)
T5508 003:456.356 - 0.006ms returns 0x00000000
T5508 003:456.361 JLINK_ReadReg(FPS2)
T5508 003:456.365 - 0.005ms returns 0x00000000
T5508 003:456.369 JLINK_ReadReg(FPS3)
T5508 003:456.373 - 0.005ms returns 0x00000000
T5508 003:456.378 JLINK_ReadReg(FPS4)
T5508 003:456.382 - 0.005ms returns 0x00000000
T5508 003:456.386 JLINK_ReadReg(FPS5)
T5508 003:456.390 - 0.008ms returns 0x00000000
T5508 003:456.397 JLINK_ReadReg(FPS6)
T5508 003:456.401 - 0.005ms returns 0x00000000
T5508 003:456.406 JLINK_ReadReg(FPS7)
T5508 003:456.409 - 0.005ms returns 0x00000000
T5508 003:456.414 JLINK_ReadReg(FPS8)
T5508 003:456.418 - 0.005ms returns 0x00000000
T5508 003:456.422 JLINK_ReadReg(FPS9)
T5508 003:456.426 - 0.005ms returns 0x00000000
T5508 003:456.431 JLINK_ReadReg(FPS10)
T5508 003:456.435 - 0.005ms returns 0x00000000
T5508 003:456.440 JLINK_ReadReg(FPS11)
T5508 003:456.444 - 0.005ms returns 0x00000000
T5508 003:456.449 JLINK_ReadReg(FPS12)
T5508 003:456.452 - 0.005ms returns 0x00000000
T5508 003:456.457 JLINK_ReadReg(FPS13)
T5508 003:456.460 - 0.005ms returns 0x00000000
T5508 003:456.465 JLINK_ReadReg(FPS14)
T5508 003:456.469 - 0.005ms returns 0x00000000
T5508 003:456.473 JLINK_ReadReg(FPS15)
T5508 003:456.477 - 0.005ms returns 0x00000000
T5508 003:456.481 JLINK_ReadReg(FPS16)
T5508 003:456.485 - 0.005ms returns 0x00000000
T5508 003:456.489 JLINK_ReadReg(FPS17)
T5508 003:456.493 - 0.005ms returns 0x00000000
T5508 003:456.498 JLINK_ReadReg(FPS18)
T5508 003:456.501 - 0.005ms returns 0x00000000
T5508 003:456.506 JLINK_ReadReg(FPS19)
T5508 003:456.509 - 0.005ms returns 0x00000000
T5508 003:456.514 JLINK_ReadReg(FPS20)
T5508 003:456.517 - 0.005ms returns 0x00000000
T5508 003:456.522 JLINK_ReadReg(FPS21)
T5508 003:456.526 - 0.005ms returns 0x00000000
T5508 003:456.530 JLINK_ReadReg(FPS22)
T5508 003:456.534 - 0.005ms returns 0x00000000
T5508 003:456.538 JLINK_ReadReg(FPS23)
T5508 003:456.542 - 0.005ms returns 0x00000000
T5508 003:456.546 JLINK_ReadReg(FPS24)
T5508 003:456.550 - 0.005ms returns 0x00000000
T5508 003:456.555 JLINK_ReadReg(FPS25)
T5508 003:456.560 - 0.007ms returns 0x00000000
T5508 003:456.566 JLINK_ReadReg(FPS26)
T5508 003:456.571 - 0.007ms returns 0x00000000
T5508 003:456.576 JLINK_ReadReg(FPS27)
T5508 003:456.582 - 0.007ms returns 0x00000000
T5508 003:456.588 JLINK_ReadReg(FPS28)
T5508 003:456.592 - 0.006ms returns 0x00000000
T5508 003:456.597 JLINK_ReadReg(FPS29)
T5508 003:456.601 - 0.005ms returns 0x00000000
T5508 003:456.605 JLINK_ReadReg(FPS30)
T5508 003:456.609 - 0.005ms returns 0x00000000
T5508 003:456.613 JLINK_ReadReg(FPS31)
T5508 003:456.617 - 0.005ms returns 0x00000000
T5508 003:456.626 JLINK_ReadMemEx(0x20007CC4, 0x4 Bytes, Flags = 0x02000000)
T5508 003:456.637   CPU_ReadMem(64 bytes @ 0x20007CC0)
T5508 003:457.312    -- Updating C cache (64 bytes @ 0x20007CC0)
T5508 003:457.329    -- Read from C cache (4 bytes @ 0x20007CC4)
T5508 003:457.337   Data:  00 00 00 00
T5508 003:457.344 - 0.721ms returns 4 (0x4)
T5508 003:883.391 JLINK_ReadMemEx(0x0800C424, 0x2 Bytes, Flags = 0x02000000)
T5508 003:883.427   CPU_ReadMem(64 bytes @ 0x0800C400)
T5508 003:884.290    -- Updating C cache (64 bytes @ 0x0800C400)
T5508 003:884.307    -- Read from C cache (2 bytes @ 0x0800C424)
T5508 003:884.313   Data:  80 B5
T5508 003:884.318 - 0.929ms returns 2 (0x2)
T5508 003:884.326 JLINK_HasError()
T5508 003:884.332 JLINK_SetBPEx(Addr = 0x08006FEC, Type = 0xFFFFFFF2)
T5508 003:884.339 - 0.008ms returns 0x00000003
T5508 003:884.343 JLINK_HasError()
T5508 003:884.348 JLINK_HasError()
T5508 003:884.352 JLINK_Go()
T5508 003:884.360   CPU_WriteMem(4 bytes @ 0xE0002000)
T5508 003:884.792   CPU_ReadMem(4 bytes @ 0xE0001000)
T5508 003:885.197   CPU_WriteMem(4 bytes @ 0xE0002008)
T5508 003:885.209   CPU_WriteMem(4 bytes @ 0xE000200C)
T5508 003:886.557 - 2.213ms
T5508 003:987.029 JLINK_HasError()
T5508 003:987.081 JLINK_IsHalted()
T5508 003:987.659 - 0.601ms returns FALSE
T5508 004:088.027 JLINK_HasError()
T5508 004:088.064 JLINK_IsHalted()
T5508 004:088.411 - 0.367ms returns FALSE
T5508 004:189.405 JLINK_HasError()
T5508 004:189.433 JLINK_IsHalted()
T5508 004:189.999 - 0.583ms returns FALSE
T5508 004:290.352 JLINK_HasError()
T5508 004:290.393 JLINK_IsHalted()
T5508 004:290.878 - 0.510ms returns FALSE
T5508 004:391.691 JLINK_HasError()
T5508 004:391.720 JLINK_IsHalted()
T5508 004:392.366 - 0.659ms returns FALSE
T5508 004:492.737 JLINK_HasError()
T5508 004:492.793 JLINK_HasError()
T5508 004:492.807 JLINK_ReadMemU32(0xE0001004, 0x1 Items)
T5508 004:492.826   CPU_ReadMem(4 bytes @ 0xE0001004)
T5508 004:493.409   Data:  68 5F 12 06
T5508 004:493.423   Debug reg: DWT_CYCCNT
T5508 004:493.429 - 0.623ms returns 1 (0x1)
T5508 004:494.132 JLINK_IsHalted()
T5508 004:494.607 - 0.483ms returns FALSE
T5508 004:595.621 JLINK_HasError()
T5508 004:595.655 JLINK_IsHalted()
T5508 004:596.356 - 0.715ms returns FALSE
T5508 004:697.503 JLINK_HasError()
T5508 004:697.555 JLINK_IsHalted()
T5508 004:698.083 - 0.544ms returns FALSE
T5508 004:798.872 JLINK_HasError()
T5508 004:798.906 JLINK_IsHalted()
T5508 004:799.417 - 0.520ms returns FALSE
T5508 004:899.840 JLINK_HasError()
T5508 004:899.876 JLINK_IsHalted()
T5508 004:900.402 - 0.534ms returns FALSE
T5508 005:000.969 JLINK_HasError()
T5508 005:001.005 JLINK_HasError()
T5508 005:001.012 JLINK_ReadMemU32(0xE0001004, 0x1 Items)
T5508 005:001.034   Data:  68 5F 12 06
T5508 005:001.044   Debug reg: DWT_CYCCNT
T5508 005:001.051 - 0.042ms returns 1 (0x1)
T5508 005:001.969 JLINK_IsHalted()
T5508 005:002.667 - 0.709ms returns FALSE
T5508 005:103.298 JLINK_HasError()
T5508 005:103.335 JLINK_IsHalted()
T5508 005:104.075 - 0.755ms returns FALSE
T5508 005:204.947 JLINK_HasError()
T5508 005:204.968 JLINK_IsHalted()
T5508 005:205.470 - 0.510ms returns FALSE
T5508 005:305.716 JLINK_HasError()
T5508 005:305.749 JLINK_IsHalted()
T5508 005:306.388 - 0.653ms returns FALSE
T5508 005:406.982 JLINK_HasError()
T5508 005:407.011 JLINK_IsHalted()
T5508 005:407.448 - 0.446ms returns FALSE
T5508 005:508.257 JLINK_HasError()
T5508 005:508.281 JLINK_IsHalted()
T5508 005:508.977 - 0.705ms returns FALSE
T5508 005:609.756 JLINK_HasError()
T5508 005:609.784 JLINK_HasError()
T5508 005:609.789 JLINK_ReadMemU32(0xE0001004, 0x1 Items)
T5508 005:609.806   Data:  68 5F 12 06
T5508 005:609.813   Debug reg: DWT_CYCCNT
T5508 005:609.817 - 0.030ms returns 1 (0x1)
T5508 005:610.488 JLINK_IsHalted()
T5508 005:610.937 - 0.457ms returns FALSE
T5508 005:711.810 JLINK_HasError()
T5508 005:711.833 JLINK_IsHalted()
T5508 005:712.168 - 0.343ms returns FALSE
T5508 005:812.523 JLINK_HasError()
T5508 005:812.551 JLINK_IsHalted()
T5508 005:813.067 - 0.525ms returns FALSE
T5508 005:913.288 JLINK_HasError()
T5508 005:913.311 JLINK_IsHalted()
T5508 005:913.877 - 0.575ms returns FALSE
T5508 006:014.588 JLINK_HasError()
T5508 006:014.630 JLINK_IsHalted()
T5508 006:015.231 - 0.620ms returns FALSE
T5508 006:115.783 JLINK_HasError()
T5508 006:115.813 JLINK_IsHalted()
T5508 006:116.529 - 0.727ms returns FALSE
T5508 006:217.664 JLINK_HasError()
T5508 006:217.706 JLINK_HasError()
T5508 006:217.712 JLINK_ReadMemU32(0xE0001004, 0x1 Items)
T5508 006:217.737   Data:  68 5F 12 06
T5508 006:217.746   Debug reg: DWT_CYCCNT
T5508 006:217.751 - 0.041ms returns 1 (0x1)
T5508 006:218.433 JLINK_IsHalted()
T5508 006:218.943 - 0.518ms returns FALSE
T5508 006:319.463 JLINK_HasError()
T5508 006:319.486 JLINK_IsHalted()
T5508 006:320.058 - 0.592ms returns FALSE
T5508 006:420.253 JLINK_HasError()
T5508 006:420.307 JLINK_IsHalted()
T5508 006:420.776 - 0.489ms returns FALSE
T5508 006:521.007 JLINK_HasError()
T5508 006:521.040 JLINK_IsHalted()
T5508 006:521.376 - 0.344ms returns FALSE
T5508 006:621.487 JLINK_HasError()
T5508 006:621.529 JLINK_IsHalted()
T5508 006:621.914 - 0.393ms returns FALSE
T5508 006:722.512 JLINK_HasError()
T5508 006:722.549 JLINK_IsHalted()
T5508 006:723.093 - 0.566ms returns FALSE
T5508 006:823.985 JLINK_HasError()
T5508 006:824.035 JLINK_HasError()
T5508 006:824.041 JLINK_ReadMemU32(0xE0001004, 0x1 Items)
T5508 006:824.065   Data:  68 5F 12 06
T5508 006:824.073   Debug reg: DWT_CYCCNT
T5508 006:824.080 - 0.041ms returns 1 (0x1)
T5508 006:824.806 JLINK_IsHalted()
T5508 006:825.163 - 0.373ms returns FALSE
T5508 006:925.503 JLINK_HasError()
T5508 006:925.539 JLINK_IsHalted()
T5508 006:926.409 - 0.880ms returns FALSE
T5508 007:027.169 JLINK_HasError()
T5508 007:027.196 JLINK_IsHalted()
T5508 007:027.701 - 0.539ms returns FALSE
T5508 007:128.723 JLINK_HasError()
T5508 007:128.747 JLINK_IsHalted()
T5508 007:129.410 - 0.670ms returns FALSE
T5508 007:230.255 JLINK_HasError()
T5508 007:230.321 JLINK_IsHalted()
T5508 007:230.993 - 0.681ms returns FALSE
T5508 007:331.153 JLINK_HasError()
T5508 007:331.232 JLINK_IsHalted()
T5508 007:331.691 - 0.476ms returns FALSE
T5508 007:431.830 JLINK_HasError()
T5508 007:431.866 JLINK_HasError()
T5508 007:431.872 JLINK_ReadMemU32(0xE0001004, 0x1 Items)
T5508 007:431.896   Data:  68 5F 12 06
T5508 007:431.904   Debug reg: DWT_CYCCNT
T5508 007:431.911 - 0.042ms returns 1 (0x1)
T5508 007:434.203 JLINK_IsHalted()
T5508 007:434.901 - 0.709ms returns FALSE
T5508 007:535.061 JLINK_HasError()
T5508 007:535.086 JLINK_IsHalted()
T5508 007:535.530 - 0.452ms returns FALSE
T5508 007:635.927 JLINK_HasError()
T5508 007:635.958 JLINK_IsHalted()
T5508 007:636.558 - 0.622ms returns FALSE
T5508 007:737.242 JLINK_HasError()
T5508 007:737.281 JLINK_IsHalted()
T5508 007:737.742 - 0.470ms returns FALSE
T5508 007:838.471 JLINK_HasError()
T5508 007:838.504 JLINK_IsHalted()
T5508 007:839.140 - 0.646ms returns FALSE
T5508 007:939.445 JLINK_HasError()
T5508 007:939.505 JLINK_HasError()
T5508 007:939.509 JLINK_ReadMemU32(0xE0001004, 0x1 Items)
T5508 007:939.530   Data:  68 5F 12 06
T5508 007:939.537   Debug reg: DWT_CYCCNT
T5508 007:939.541 - 0.033ms returns 1 (0x1)
T5508 007:940.244 JLINK_IsHalted()
T5508 007:940.816 - 0.579ms returns FALSE
T5508 008:041.752 JLINK_HasError()
T5508 008:041.796 JLINK_IsHalted()
T5508 008:042.369 - 0.587ms returns FALSE
T5508 008:142.423 JLINK_HasError()
T5508 008:142.448 JLINK_IsHalted()
T5508 008:142.937 - 0.499ms returns FALSE
T5508 008:243.329 JLINK_HasError()
T5508 008:243.360 JLINK_IsHalted()
T5508 008:244.009 - 0.658ms returns FALSE
T5508 008:344.495 JLINK_HasError()
T5508 008:344.525 JLINK_IsHalted()
T5508 008:345.116 - 0.602ms returns FALSE
T5508 008:445.626 JLINK_HasError()
T5508 008:445.661 JLINK_IsHalted()
T5508 008:446.388 - 0.741ms returns FALSE
T5508 008:546.843 JLINK_HasError()
T5508 008:546.873 JLINK_HasError()
T5508 008:546.878 JLINK_ReadMemU32(0xE0001004, 0x1 Items)
T5508 008:546.897   Data:  68 5F 12 06
T5508 008:546.903   Debug reg: DWT_CYCCNT
T5508 008:546.909 - 0.032ms returns 1 (0x1)
T5508 008:547.841 JLINK_IsHalted()
T5508 008:548.411 - 0.580ms returns FALSE
T5508 008:648.789 JLINK_HasError()
T5508 008:648.818 JLINK_IsHalted()
T5508 008:649.477 - 0.671ms returns FALSE
T5508 008:750.441 JLINK_HasError()
T5508 008:750.473 JLINK_IsHalted()
T5508 008:751.043 - 0.579ms returns FALSE
T5508 008:851.224 JLINK_HasError()
T5508 008:851.262 JLINK_IsHalted()
T5508 008:851.878 - 0.629ms returns FALSE
T5508 008:952.819 JLINK_HasError()
T5508 008:952.848 JLINK_IsHalted()
T5508 008:953.254 - 0.416ms returns FALSE
T5508 009:053.500 JLINK_HasError()
T5508 009:053.551 JLINK_IsHalted()
T5508 009:053.963 - 0.420ms returns FALSE
T5508 009:154.592 JLINK_HasError()
T5508 009:154.634 JLINK_HasError()
T5508 009:154.640 JLINK_ReadMemU32(0xE0001004, 0x1 Items)
T5508 009:154.660   Data:  68 5F 12 06
T5508 009:154.668   Debug reg: DWT_CYCCNT
T5508 009:154.675 - 0.037ms returns 1 (0x1)
T5508 009:155.481 JLINK_IsHalted()
T5508 009:156.108 - 0.637ms returns FALSE
T5508 009:256.851 JLINK_HasError()
T5508 009:256.897 JLINK_IsHalted()
T5508 009:257.277 - 0.392ms returns FALSE
T5508 009:357.689 JLINK_HasError()
T5508 009:357.721 JLINK_IsHalted()
T5508 009:358.188 - 0.476ms returns FALSE
T5508 009:458.509 JLINK_HasError()
T5508 009:458.571 JLINK_IsHalted()
T5508 009:459.110 - 0.550ms returns FALSE
T5508 009:560.099 JLINK_HasError()
T5508 009:560.135 JLINK_IsHalted()
T5508 009:560.521 - 0.404ms returns FALSE
T5508 009:661.641 JLINK_HasError()
T5508 009:661.689 JLINK_IsHalted()
T5508 009:662.201 - 0.529ms returns FALSE
T5508 009:763.106 JLINK_HasError()
T5508 009:763.133 JLINK_HasError()
T5508 009:763.138 JLINK_ReadMemU32(0xE0001004, 0x1 Items)
T5508 009:763.155   Data:  68 5F 12 06
T5508 009:763.162   Debug reg: DWT_CYCCNT
T5508 009:763.167 - 0.031ms returns 1 (0x1)
T5508 009:764.028 JLINK_IsHalted()
T5508 009:764.561 - 0.542ms returns FALSE
T5508 009:865.348 JLINK_HasError()
T5508 009:865.375 JLINK_IsHalted()
T5508 009:865.837 - 0.472ms returns FALSE
T5508 009:966.795 JLINK_HasError()
T5508 009:966.829 JLINK_IsHalted()
T5508 009:967.359 - 0.545ms returns FALSE
T5508 010:068.469 JLINK_HasError()
T5508 010:068.493 JLINK_IsHalted()
T5508 010:068.839 - 0.368ms returns FALSE
T5508 010:169.946 JLINK_HasError()
T5508 010:169.979 JLINK_IsHalted()
T5508 010:170.528 - 0.561ms returns FALSE
T5508 010:271.201 JLINK_HasError()
T5508 010:271.234 JLINK_IsHalted()
T5508 010:271.929 - 0.708ms returns FALSE
T5508 010:372.778 JLINK_HasError()
T5508 010:372.823 JLINK_HasError()
T5508 010:372.832 JLINK_ReadMemU32(0xE0001004, 0x1 Items)
T5508 010:372.859   Data:  68 5F 12 06
T5508 010:372.871   Debug reg: DWT_CYCCNT
T5508 010:372.881 - 0.052ms returns 1 (0x1)
T5508 010:374.027 JLINK_IsHalted()
T5508 010:374.618 - 0.617ms returns FALSE
T5508 010:475.285 JLINK_HasError()
T5508 010:475.314 JLINK_IsHalted()
T5508 010:475.835 - 0.533ms returns FALSE
T5508 010:576.651 JLINK_HasError()
T5508 010:576.695 JLINK_IsHalted()
T5508 010:577.094 - 0.416ms returns FALSE
T5508 010:677.931 JLINK_HasError()
T5508 010:677.955 JLINK_IsHalted()
T5508 010:678.451 - 0.504ms returns FALSE
T5508 010:779.025 JLINK_HasError()
T5508 010:779.062 JLINK_IsHalted()
T5508 010:779.748 - 0.697ms returns FALSE
T5508 010:880.032 JLINK_HasError()
T5508 010:880.066 JLINK_IsHalted()
T5508 010:880.719 - 0.661ms returns FALSE
T5508 010:980.814 JLINK_HasError()
T5508 010:980.839 JLINK_HasError()
T5508 010:980.843 JLINK_ReadMemU32(0xE0001004, 0x1 Items)
T5508 010:980.860   Data:  68 5F 12 06
T5508 010:980.866   Debug reg: DWT_CYCCNT
T5508 010:980.871 - 0.029ms returns 1 (0x1)
T5508 010:983.073 JLINK_IsHalted()
T5508 010:983.478 - 0.415ms returns FALSE
T5508 011:084.851 JLINK_HasError()
T5508 011:084.907 JLINK_IsHalted()
T5508 011:085.602 - 0.719ms returns FALSE
T5508 011:186.679 JLINK_HasError()
T5508 011:186.709 JLINK_IsHalted()
T5508 011:187.061 - 0.365ms returns FALSE
T5508 011:288.004 JLINK_HasError()
T5508 011:288.045 JLINK_IsHalted()
T5508 011:288.701 - 0.673ms returns FALSE
T5508 011:389.269 JLINK_HasError()
T5508 011:389.298 JLINK_IsHalted()
T5508 011:390.156 - 0.867ms returns FALSE
T5508 011:491.452 JLINK_HasError()
T5508 011:491.485 JLINK_IsHalted()
T5508 011:491.872 - 0.395ms returns FALSE
T5508 011:592.509 JLINK_HasError()
T5508 011:592.536 JLINK_HasError()
T5508 011:592.541 JLINK_ReadMemU32(0xE0001004, 0x1 Items)
T5508 011:592.561   Data:  68 5F 12 06
T5508 011:592.567   Debug reg: DWT_CYCCNT
T5508 011:592.571 - 0.032ms returns 1 (0x1)
T5508 011:593.362 JLINK_IsHalted()
T5508 011:594.067 - 0.712ms returns FALSE
T5508 011:694.459 JLINK_HasError()
T5508 011:694.502 JLINK_IsHalted()
T5508 011:694.948 - 0.489ms returns FALSE
T5508 011:795.953 JLINK_HasError()
T5508 011:795.987 JLINK_IsHalted()
T5508 011:796.518 - 0.540ms returns FALSE
T5508 011:897.323 JLINK_HasError()
T5508 011:897.354 JLINK_IsHalted()
T5508 011:897.732 - 0.389ms returns FALSE
T5508 011:998.041 JLINK_HasError()
T5508 011:998.098 JLINK_IsHalted()
T5508 011:998.520 - 0.431ms returns FALSE
T5508 012:099.154 JLINK_HasError()
T5508 012:099.185 JLINK_IsHalted()
T5508 012:099.594 - 0.428ms returns FALSE
T5508 012:200.666 JLINK_HasError()
T5508 012:200.722 JLINK_HasError()
T5508 012:200.726 JLINK_ReadMemU32(0xE0001004, 0x1 Items)
T5508 012:200.745   Data:  68 5F 12 06
T5508 012:200.752   Debug reg: DWT_CYCCNT
T5508 012:200.756 - 0.031ms returns 1 (0x1)
T5508 012:201.497 JLINK_IsHalted()
T5508 012:202.126 - 0.636ms returns FALSE
T5508 012:302.453 JLINK_HasError()
T5508 012:302.481 JLINK_IsHalted()
T5508 012:303.157 - 0.685ms returns FALSE
T5508 012:403.708 JLINK_HasError()
T5508 012:403.742 JLINK_IsHalted()
T5508 012:404.282 - 0.548ms returns FALSE
T5508 012:504.661 JLINK_HasError()
T5508 012:504.699 JLINK_IsHalted()
T5508 012:505.342 - 0.651ms returns FALSE
T5508 012:606.503 JLINK_HasError()
T5508 012:606.537 JLINK_IsHalted()
T5508 012:606.990 - 0.462ms returns FALSE
T5508 012:707.306 JLINK_HasError()
T5508 012:707.360 JLINK_IsHalted()
T5508 012:708.185 - 0.835ms returns FALSE
T5508 012:809.284 JLINK_HasError()
T5508 012:809.334 JLINK_HasError()
T5508 012:809.346 JLINK_ReadMemU32(0xE0001004, 0x1 Items)
T5508 012:809.378   Data:  68 5F 12 06
T5508 012:809.393   Debug reg: DWT_CYCCNT
T5508 012:809.406 - 0.063ms returns 1 (0x1)
T5508 012:810.336 JLINK_IsHalted()
T5508 012:810.796 - 0.472ms returns FALSE
T5508 012:911.497 JLINK_HasError()
T5508 012:911.548 JLINK_IsHalted()
T5508 012:912.013 - 0.488ms returns FALSE
T5508 013:012.310 JLINK_HasError()
T5508 013:012.344 JLINK_IsHalted()
T5508 013:013.010 - 0.678ms returns FALSE
T5508 013:114.001 JLINK_HasError()
T5508 013:114.034 JLINK_IsHalted()
T5508 013:114.626 - 0.602ms returns FALSE
T5508 013:215.027 JLINK_HasError()
T5508 013:215.067 JLINK_IsHalted()
T5508 013:215.750 - 0.693ms returns FALSE
T5508 013:316.698 JLINK_HasError()
T5508 013:316.726 JLINK_IsHalted()
T5508 013:317.252 - 0.536ms returns FALSE
T5508 013:418.057 JLINK_HasError()
T5508 013:418.095 JLINK_HasError()
T5508 013:418.103 JLINK_ReadMemU32(0xE0001004, 0x1 Items)
T5508 013:418.127   Data:  68 5F 12 06
T5508 013:418.137   Debug reg: DWT_CYCCNT
T5508 013:418.146 - 0.045ms returns 1 (0x1)
T5508 013:419.160 JLINK_IsHalted()
T5508 013:419.773 - 0.629ms returns FALSE
T5508 013:520.218 JLINK_HasError()
T5508 013:520.290 JLINK_IsHalted()
T5508 013:520.800 - 0.523ms returns FALSE
T5508 013:622.071 JLINK_HasError()
T5508 013:622.096 JLINK_IsHalted()
T5508 013:622.581 - 4.190ms returns FALSE
T5508 013:726.725 JLINK_HasError()
T5508 013:726.755 JLINK_IsHalted()
T5508 013:727.331 - 0.585ms returns FALSE
T5508 013:827.628 JLINK_HasError()
T5508 013:827.673 JLINK_IsHalted()
T5508 013:828.283 - 0.618ms returns FALSE
T5508 013:929.389 JLINK_HasError()
T5508 013:929.425 JLINK_IsHalted()
T5508 013:932.463 - 3.053ms returns TRUE
T5508 013:932.498 JLINK_HasError()
T5508 013:932.503 JLINK_Halt()
T5508 013:932.507 - 0.005ms returns 0x00
T5508 013:932.511 JLINK_IsHalted()
T5508 013:932.514 - 0.005ms returns TRUE
T5508 013:932.519 JLINK_IsHalted()
T5508 013:932.522 - 0.005ms returns TRUE
T5508 013:932.526 JLINK_IsHalted()
T5508 013:932.529 - 0.004ms returns TRUE
T5508 013:932.534 JLINK_HasError()
T5508 013:932.539 JLINK_ReadReg(R15 (PC))
T5508 013:932.549 - 0.012ms returns 0x08006FEC
T5508 013:932.553 JLINK_ReadReg(XPSR)
T5508 013:932.557 - 0.005ms returns 0x21000000
T5508 013:932.566 JLINK_HasError()
T5508 013:932.570 JLINK_ClrBPEx(BPHandle = 0x00000003)
T5508 013:932.573 - 0.005ms returns 0x00
T5508 013:932.577 JLINK_HasError()
T5508 013:932.581 JLINK_HasError()
T5508 013:932.585 JLINK_ReadMemU32(0xE000ED30, 0x1 Items)
T5508 013:932.596   CPU_ReadMem(4 bytes @ 0xE000ED30)
T5508 013:933.098   Data:  02 00 00 00
T5508 013:933.121 - 0.537ms returns 1 (0x1)
T5508 013:933.127 JLINK_ReadMemU32(0xE0001028, 0x1 Items)
T5508 013:933.135   CPU_ReadMem(4 bytes @ 0xE0001028)
T5508 013:933.840   Data:  00 00 00 00
T5508 013:933.852   Debug reg: DWT_FUNC[0]
T5508 013:933.857 - 0.731ms returns 1 (0x1)
T5508 013:933.863 JLINK_ReadMemU32(0xE0001038, 0x1 Items)
T5508 013:933.871   CPU_ReadMem(4 bytes @ 0xE0001038)
T5508 013:934.324   Data:  00 02 00 00
T5508 013:934.341   Debug reg: DWT_FUNC[1]
T5508 013:934.346 - 0.484ms returns 1 (0x1)
T5508 013:934.356 JLINK_ReadMemU32(0xE0001048, 0x1 Items)
T5508 013:934.364   CPU_ReadMem(4 bytes @ 0xE0001048)
T5508 013:934.945   Data:  00 00 00 00
T5508 013:934.956   Debug reg: DWT_FUNC[2]
T5508 013:934.961 - 0.606ms returns 1 (0x1)
T5508 013:934.971 JLINK_ReadMemU32(0xE0001058, 0x1 Items)
T5508 013:934.979   CPU_ReadMem(4 bytes @ 0xE0001058)
T5508 013:935.713   Data:  00 00 00 00
T5508 013:935.724   Debug reg: DWT_FUNC[3]
T5508 013:935.728 - 0.759ms returns 1 (0x1)
T5508 013:935.805 JLINK_HasError()
T5508 013:935.811 JLINK_ReadReg(R0)
T5508 013:935.817 - 0.007ms returns 0x200059E0
T5508 013:935.821 JLINK_ReadReg(R1)
T5508 013:935.824 - 0.005ms returns 0x20005A60
T5508 013:935.828 JLINK_ReadReg(R2)
T5508 013:935.831 - 0.005ms returns 0x00000003
T5508 013:935.835 JLINK_ReadReg(R3)
T5508 013:935.839 - 0.004ms returns 0x20005A70
T5508 013:935.842 JLINK_ReadReg(R4)
T5508 013:935.846 - 0.005ms returns 0xA5A5A5A5
T5508 013:935.850 JLINK_ReadReg(R5)
T5508 013:935.853 - 0.004ms returns 0xA5A5A5A5
T5508 013:935.857 JLINK_ReadReg(R6)
T5508 013:935.860 - 0.004ms returns 0xA5A5A5A5
T5508 013:935.864 JLINK_ReadReg(R7)
T5508 013:935.867 - 0.004ms returns 0xA5A5A5A5
T5508 013:935.871 JLINK_ReadReg(R8)
T5508 013:935.874 - 0.004ms returns 0xA5A5A5A5
T5508 013:935.878 JLINK_ReadReg(R9)
T5508 013:935.881 - 0.004ms returns 0xA5A5A5A5
T5508 013:935.885 JLINK_ReadReg(R10)
T5508 013:935.888 - 0.004ms returns 0xA5A5A5A5
T5508 013:935.892 JLINK_ReadReg(R11)
T5508 013:935.895 - 0.004ms returns 0xA5A5A5A5
T5508 013:935.899 JLINK_ReadReg(R12)
T5508 013:935.902 - 0.004ms returns 0x00000000
T5508 013:935.906 JLINK_ReadReg(R13 (SP))
T5508 013:935.910 - 0.005ms returns 0x20005918
T5508 013:935.914 JLINK_ReadReg(R14)
T5508 013:935.917 - 0.005ms returns 0x08006FC9
T5508 013:935.921 JLINK_ReadReg(R15 (PC))
T5508 013:935.924 - 0.004ms returns 0x08006FEC
T5508 013:935.928 JLINK_ReadReg(XPSR)
T5508 013:935.931 - 0.005ms returns 0x21000000
T5508 013:935.935 JLINK_ReadReg(MSP)
T5508 013:935.938 - 0.004ms returns 0x20010FB8
T5508 013:935.942 JLINK_ReadReg(PSP)
T5508 013:935.946 - 0.004ms returns 0x20005918
T5508 013:935.949 JLINK_ReadReg(CFBP)
T5508 013:935.953 - 0.004ms returns 0x06000000
T5508 013:935.956 JLINK_ReadReg(FPSCR)
T5508 013:940.796 - 4.859ms returns 0x80000010
T5508 013:940.822 JLINK_ReadReg(FPS0)
T5508 013:940.829 - 0.008ms returns 0x00000000
T5508 013:940.833 JLINK_ReadReg(FPS1)
T5508 013:940.837 - 0.005ms returns 0x00000000
T5508 013:940.841 JLINK_ReadReg(FPS2)
T5508 013:940.845 - 0.005ms returns 0x00000000
T5508 013:940.849 JLINK_ReadReg(FPS3)
T5508 013:940.852 - 0.005ms returns 0x00000000
T5508 013:940.857 JLINK_ReadReg(FPS4)
T5508 013:940.860 - 0.005ms returns 0x3FC90FD0
T5508 013:940.864 JLINK_ReadReg(FPS5)
T5508 013:940.868 - 0.005ms returns 0x00000000
T5508 013:940.872 JLINK_ReadReg(FPS6)
T5508 013:940.875 - 0.005ms returns 0x00000000
T5508 013:940.879 JLINK_ReadReg(FPS7)
T5508 013:940.883 - 0.005ms returns 0x3F800000
T5508 013:940.887 JLINK_ReadReg(FPS8)
T5508 013:940.891 - 0.005ms returns 0x00000000
T5508 013:940.895 JLINK_ReadReg(FPS9)
T5508 013:940.898 - 0.005ms returns 0x00000000
T5508 013:940.902 JLINK_ReadReg(FPS10)
T5508 013:940.906 - 0.005ms returns 0x00000000
T5508 013:940.910 JLINK_ReadReg(FPS11)
T5508 013:940.913 - 0.005ms returns 0x00000000
T5508 013:940.917 JLINK_ReadReg(FPS12)
T5508 013:940.921 - 0.005ms returns 0x00000000
T5508 013:940.925 JLINK_ReadReg(FPS13)
T5508 013:940.928 - 0.005ms returns 0x00000000
T5508 013:940.933 JLINK_ReadReg(FPS14)
T5508 013:940.936 - 0.005ms returns 0x00000000
T5508 013:940.940 JLINK_ReadReg(FPS15)
T5508 013:940.944 - 0.005ms returns 0x00000000
T5508 013:940.948 JLINK_ReadReg(FPS16)
T5508 013:940.951 - 0.005ms returns 0x00000000
T5508 013:940.955 JLINK_ReadReg(FPS17)
T5508 013:940.959 - 0.005ms returns 0x00000000
T5508 013:940.963 JLINK_ReadReg(FPS18)
T5508 013:940.966 - 0.005ms returns 0x00000000
T5508 013:940.973 JLINK_ReadReg(FPS19)
T5508 013:940.978 - 0.007ms returns 0x00000000
T5508 013:940.982 JLINK_ReadReg(FPS20)
T5508 013:940.986 - 0.005ms returns 0x00000000
T5508 013:940.990 JLINK_ReadReg(FPS21)
T5508 013:940.993 - 0.005ms returns 0x00000000
T5508 013:940.998 JLINK_ReadReg(FPS22)
T5508 013:941.001 - 0.005ms returns 0x00000000
T5508 013:941.005 JLINK_ReadReg(FPS23)
T5508 013:941.009 - 0.005ms returns 0x00000000
T5508 013:941.013 JLINK_ReadReg(FPS24)
T5508 013:941.016 - 0.005ms returns 0x00000000
T5508 013:941.020 JLINK_ReadReg(FPS25)
T5508 013:941.024 - 0.005ms returns 0x00000000
T5508 013:941.028 JLINK_ReadReg(FPS26)
T5508 013:941.032 - 0.005ms returns 0x00000000
T5508 013:941.036 JLINK_ReadReg(FPS27)
T5508 013:941.039 - 0.005ms returns 0x00000000
T5508 013:941.044 JLINK_ReadReg(FPS28)
T5508 013:941.047 - 0.005ms returns 0x00000000
T5508 013:941.051 JLINK_ReadReg(FPS29)
T5508 013:941.055 - 0.005ms returns 0x00000000
T5508 013:941.059 JLINK_ReadReg(FPS30)
T5508 013:941.063 - 0.005ms returns 0x00000000
T5508 013:941.067 JLINK_ReadReg(FPS31)
T5508 013:941.070 - 0.005ms returns 0x00000000
T5508 013:941.079 JLINK_ReadMemEx(0x20007CC4, 0x4 Bytes, Flags = 0x02000000)
T5508 013:941.091   CPU_ReadMem(64 bytes @ 0x20007CC0)
T5508 013:942.071    -- Updating C cache (64 bytes @ 0x20007CC0)
T5508 013:942.084    -- Read from C cache (4 bytes @ 0x20007CC4)
T5508 013:942.089   Data:  06 00 00 00
T5508 013:942.095 - 1.017ms returns 4 (0x4)
T5508 013:942.103 JLINK_ReadMemEx(0x20001628, 0x4 Bytes, Flags = 0x02000000)
T5508 013:942.110   CPU_ReadMem(64 bytes @ 0x20001600)
T5508 013:942.892    -- Updating C cache (64 bytes @ 0x20001600)
T5508 013:942.905    -- Read from C cache (4 bytes @ 0x20001628)
T5508 013:942.910   Data:  B8 6B 00 20
T5508 013:942.915 - 0.814ms returns 4 (0x4)
T892C 013:943.250 JLINK_ReadMemEx(0x20006B74, 0x4 Bytes, Flags = 0x02000000)
